
**** 07/26/21 16:31:30 ******* PSpice 17.4.0 (Nov 2018) ******* ID# 0 ********

 ** Profile: "SCHEMATIC1-TLV3501_SIM"  [ C:\Modeling\TLV3501\PSPICE\TLV3501-PSpiceFiles\SCHEMATIC1\TLV3501_SIM.sim ] 


 ****     CIRCUIT DESCRIPTION


******************************************************************************




** Creating circuit file "TLV3501_SIM.cir" 
** WARNING: THIS AUTOMATICALLY GENERATED FILE MAY BE OVERWRITTEN BY SUBSEQUENT SIMULATIONS

*Libraries: 
* Profile Libraries :
* Local Libraries :
.LIB "../../../tlv3501.lib" 
* From [PSPICE NETLIST] section of C:\SPB_DATA\cdssetup\OrCAD_PSpice\17.4.0\PSpice.ini file:
.lib "nom.lib" 

*Analysis directives: 
.TRAN  0 500ns 0 
.OPTIONS ADVCONV
.PROBE64 V(alias(*)) I(alias(*)) W(alias(*)) D(alias(*)) NOISE(alias(*)) 
.INC "..\SCHEMATIC1.net" 



**** INCLUDING SCHEMATIC1.net ****
* source TLV3501
.EXTERNAL INPUT IN-
.EXTERNAL INPUT IN+
.EXTERNAL INPUT V-
.EXTERNAL INPUT V+
.EXTERNAL INPUT OUT
X_U1         IN+ IN- V- V+ V- OUT TLV3501
V_VINN         IN- 0 1.65
V_V+         V+ 0 3.3
R_R2         0 V-  1m TC=0,0 
V_V1         IN+ 0  
+PULSE 1.55 1.75 0 10p 10p 50n 100n
R_R3         V- OUT  10k TC=0,0 

**** RESUMING TLV3501_SIM.cir ****
.END

**** 07/26/21 16:31:30 ******* PSpice 17.4.0 (Nov 2018) ******* ID# 0 ********

 ** Profile: "SCHEMATIC1-TLV3501_SIM"  [ C:\Modeling\TLV3501\PSPICE\TLV3501-PSpiceFiles\SCHEMATIC1\TLV3501_SIM.sim ] 


 ****     Voltage Controlled Switch MODEL PARAMETERS


******************************************************************************




               X_U1.X_S1._S1   X_U1.X_S2._S2   
         RON    1               1            
        ROFF    1.000000E+06    1.000000E+06 
         VON    1               0            
        VOFF    0               1            


               X_U1.X_U5.X_SMID._SMID 
         RON    1            
        ROFF    1.000000E+12 
         VON    0            
        VOFF    1            


               X_U1.X_U5.X_SHIZ._SHIZ 
         RON    1            
        ROFF    1.000000E+12 
         VON    0            
        VOFF    1            


               X_U1.X_U5.X_SVOH._SVOH 
         RON    1            
        ROFF    1.000000E+12 
         VON    1            
        VOFF    0            


               X_U1.X_U5.X_SVOL._SVOL 
         RON    1            
        ROFF    1.000000E+12 
         VON    0            
        VOFF    1            


**** 07/26/21 16:31:30 ******* PSpice 17.4.0 (Nov 2018) ******* ID# 0 ********

 ** Profile: "SCHEMATIC1-TLV3501_SIM"  [ C:\Modeling\TLV3501\PSPICE\TLV3501-PSpiceFiles\SCHEMATIC1\TLV3501_SIM.sim ] 


 ****     INITIAL TRANSIENT SOLUTION       TEMPERATURE =   27.000 DEG C


******************************************************************************



 NODE   VOLTAGE     NODE   VOLTAGE     NODE   VOLTAGE     NODE   VOLTAGE


(   V+)    3.3000  (   V-) 3.200E-06  (  IN+)    1.5500  (  IN-)    1.6500      

(  OUT) 3.200E-06  (X_U1.1V)    1.0000                   (X_U1.N21103) 3.168E-06

(X_U1.N21237)    0.0000               (X_U1.IN+BUFF)    1.5500                  

(X_U1.IN-BUFF)    1.6500              (X_U1.INRANGE) 3.200E-06                  

(X_U1.N785573)    1.5510              (X_U1.N852568)     .0060                  

(X_U1.N858114)    1.6000              (X_U1.N858423)    2.4000                  

(X_U1.N858660) 3.200E-06              (X_U1.N858664)    3.3000                  

(X_U1.N858942)    3.2673              (X_U1.N860089)    1.6337                  

(X_U1.N860095)    1.6337              (X_U1.N860471)    1.6500                  

(X_U1.N860477)    1.6500              (X_U1.N861616)    3.2673                  

(X_U1.N861628)    3.3000              (X_U1.N865822) 1.584E-06                  

(X_U1.N880755)     .0032              (X_U1.N880765) 4.004E-15                  

(X_U1.N880795)    3.3000              (X_U1.N880935)     .0032                  

(X_U1.N893768)    1.0000              (X_U1.X_U10.4)    1.0000                  

(X_U1.X_U3.VH)     .0030              (X_U1.X_U5.1V)    1.0000                  

(X_U1.X_U7.1V)    1.0000              (X_U1.X_U3.OUT) 3.200E-06                 

(X_U1.X_U5.MID)    1.6500             (X_U1.SHDN_CTRL)    1.0000                

(X_U1.V+_BUFFER)    3.3000            (X_U1.V-_BUFFER) 3.200E-06                

(X_U1.X_U3.VMID)    1.6500            (X_U1.X_U8.OUT2)    3.3000                

(X_U1.X_U9.OUT2) 3.200E-06            (X_U1.X_U2.N20155)    3.5100              

(X_U1.X_U2.N20415)    -.2100          (X_U1.X_U2.N20531) 3.200E-06              

(X_U1.X_U2.N20539)    -.2100          (X_U1.X_U2.N20826) 3.200E-06              

(X_U1.X_U2.N20833) 3.200E-06          (X_U1.X_U2.N20840) 3.200E-06              

(X_U1.X_U3.INNNEW)    1.6530          (X_U1.X_U4.N03175) 1.584E-06              

(X_U1.X_U5.DS_OUT)    2.3000          (X_U1.X_U5.X_U3.3)    2.3000              

(X_U1.X_U5.X_U8.6)    0.0000          (X_U1.X_U7.N16973)    3.3000              

(X_U1.X_U7.N20310)    2.1900          (X_U1.X_U7.N20377)    5.5000              

(X_U1.X_U2.N202710)    3.5100         (X_U1.X_U2.X_U24.6) 3.200E-06             

(X_U1.X_U5.N778484) 3.200E-06         (X_U1.X_U5.N778496) 3.200E-06             

(X_U1.X_U5.N789513)    1.0000         (X_U1.X_U5.N850209) 3.200E-06             

(X_U1.X_U5.N855577)    3.3000         (X_U1.X_U5.VSS_NEW)    2.3000             

(X_U1.X_U5.X_U10.4)    1.0000         (X_U1.X_U5.X_U11.4)    2.3000             

(X_U1.X_U7.N777122)    2.1900         (X_U1.X_U7.N777182)    0.0000             

(X_U1.X_U7.N777375)    0.0000         (X_U1.X_U7.X_U17.4)    0.0000             

(X_U1.X_U5.N8491902) 3.201E-06        (X_U1.X_U2.X_U1.OUT2) 3.200E-06           

(X_U1.X_U5.SOUT_CTRL)    2.3000       (X_U1.X_U5.X_U7.VMID)    1.6500           

(X_U1.X_U7.X_U5.OUT2)    0.0000       (X_U1.X_U2.X_U21.OUT2) 3.200E-06          

(X_U1.X_U2.X_U22.OUT2) 3.200E-06      (X_U1.X_U2.X_U23.OUT2) 3.200E-06          

(X_U1.X_U7.X_U13.OUT1)    3.3000      (X_U1.X_U7.X_U15.OUT2)    0.0000          

(X_U1.X_U7.X_U16.OUT2)    0.0000      (X_U1.X_U5.CONTROL_HIZ)    0.0000         

(X_U1.X_U5.CONTROL_MID)    1.0000     




    VOLTAGE SOURCE CURRENTS
    NAME         CURRENT

    V_VINN      -3.650E-12
    V_V+        -3.200E-03
    V_V1        -3.550E-12
    X_U1.V_VOS   0.000E+00
    X_U1.V_EN_REF   0.000E+00
    X_U1.V_HYST   0.000E+00
    X_U1.V_DIS_REF   0.000E+00
    X_U1.V_VLOGIC   0.000E+00
    X_U1.V_V_LOGIC   0.000E+00
    X_U1.X_U2.V_VCMNP   0.000E+00
    X_U1.X_U2.V_VCMPN   0.000E+00
    X_U1.X_U2.V_VCMPP   0.000E+00
    X_U1.X_U2.V_VCMNN   0.000E+00
    X_U1.X_U5.V_VLOGIC   0.000E+00
    X_U1.X_U5.V_V1   1.654E-24
    X_U1.X_U7.V_VS_MIN_SET   0.000E+00
    X_U1.X_U7.V_VS_MAX_SET   0.000E+00
    X_U1.X_U7.V_VLOGIC   0.000E+00
    X_U1.X_U7.V_VS_MIN_SET1   0.000E+00

    TOTAL POWER DISSIPATION   1.06E-02  WATTS



          JOB CONCLUDED

**** 07/26/21 16:31:30 ******* PSpice 17.4.0 (Nov 2018) ******* ID# 0 ********

 ** Profile: "SCHEMATIC1-TLV3501_SIM"  [ C:\Modeling\TLV3501\PSPICE\TLV3501-PSpiceFiles\SCHEMATIC1\TLV3501_SIM.sim ] 


 ****     JOB STATISTICS SUMMARY


******************************************************************************



  License check-out time            =       23.41
  Total job time (using Solver 1)   =         .14
